Index	Frequency (Hz)	Z' (Ω)	-Z'' (Ω)	Z (Ω)	-Phase (°)	Time (s)
1	100000	57.5633640581578	1.20376684677506	57.5759492871234	1.19799649770411	1014.80998843785
2	79433	57.5518511753947	1.09069475942273	57.5621854065064	1.08571184458019	1016.98302343236
3	63096	57.5350025966023	1.07099058455418	57.5449697595128	1.0664143839599	1019.44606842615
4	50119	57.5450093940344	1.08618816578897	57.5552596283868	1.08135542812243	1021.92911341988
5	39811	57.5684613591836	1.13924714783617	57.5797327827046	1.1337029502603	1024.44216041353
6	31623	57.6473375336887	1.24603344432621	57.6608023189707	1.23824179096369	1026.99520940709
7	25119	57.726335834319	1.37910842628641	57.7428072482455	1.36856190884867	1029.52825540069
8	19953	57.8372662511681	1.55756153333383	57.8582350693368	1.54260641647085	1032.26130739379
9	15849	57.9412686532835	1.78233902695657	57.9686755546388	1.76192745064774	1034.97935538693
10	12589	58.0365291658249	2.05709427094009	58.0729743896003	2.02998870278808	1037.77740937986
11	10000	58.1796995589711	2.4036296775687	58.2293300356361	2.36576612182473	1040.63546237265
12	7943.3	58.3841811342445	2.80438684027683	58.451494354432	2.74999365245446	1043.50851536539
13	6309.6	58.5576612306264	3.30569508949336	58.6508935040678	3.23103005599791	1046.45656935795
14	5011.9	58.7876089842518	3.89023233093361	58.9161851928138	3.7859915673701	1049.51962735022
15	3981.1	59.0634329611618	4.60084783143252	59.2423574305214	4.45415882424127	1052.55768034255
16	3162.3	59.3354924263172	5.48483612714075	59.5884560029468	5.28128152043721	1055.7057413346
17	2511.9	59.722794014449	6.5150258556561	60.0770978559398	6.22565079058078	1058.9938033263
18	1995.3	60.0904200616096	7.78791831461593	60.5929884958304	7.38456097869034	1062.38186231774
19	1584.9	60.4957390965086	9.33059836578629	61.2110652962065	8.76796030266546	1065.73492730928
20	1258.9	60.979939975948	11.2049222092643	62.0008335523474	10.4118241890668	1069.22798930046
21	1000	61.4549435312316	13.5185988059534	62.9242608069669	12.4060945856427	1072.60605129193
22	794.33	62.0810449943449	16.3625063284899	64.2011507758214	14.7654751997023	1076.19412028287
23	630.96	62.726647436546	19.8874407772905	65.8038190327809	17.5911827284062	1079.81718727372
24	501.19	63.506178754293	24.2299525977132	67.9715039031772	20.8837000830132	1083.43525226459
25	398.11	64.3789770970435	29.6209951624012	70.8664663043999	24.7073263002794	1087.20832225506
26	316.23	65.3998060777015	36.3356475978476	74.8158667754103	29.0562255077037	1091.01139524546
27	251.19	66.6985152787711	44.6424479778464	80.2598286931089	33.7950666201191	1098.26853122714
28	199.53	68.218665960505	55.0438766646678	87.6562304899436	38.8991619117261	1103.44962521406
29	158.49	70.2567290196188	68.1070606739461	97.8497812270457	44.1099042940981	1107.52770120376
30	125.89	72.872273075603	84.245855381608	111.390001042212	49.140346999854	1111.43077319391
31	100	76.8894452008293	104.466099617384	129.711806527241	53.6460793750476	1118.8779131751
32	79.433	82.6156659327393	129.743498561856	153.813925496296	57.5125849421888	1122.90098516495
33	63.096	91.2361740230548	161.257494062222	185.278220095058	60.4997110390822	1127.14906215422
34	50.119	102.390750462425	199.804106261811	224.511796258771	62.8668712306292	1131.84214814237
35	39.811	120.191332479361	244.279660655547	272.247146932991	63.8017301229602	1136.53023813054
36	31.623	145.782476322499	297.715480374729	331.492138153344	63.9103735456802	1141.3383271184
37	25.119	184.726565556263	361.665560484488	406.110676617558	62.9435879791365	1145.94141510678
38	19.953	236.882160689995	432.358027156734	492.997587925158	61.2823585602501	1150.78950209454
39	15.849	310.676969180978	508.167746798789	595.612825639304	58.5597625964505	1155.96259708147
40	12.589	408.67862487068	577.754683924958	707.685447938149	54.7260666846627	1167.64881705197
41	10	528.24069284643	637.737400129377	828.098557602085	50.3648979718278	1172.88191103876
42	7.9433	662.007603756666	676.033010740862	946.189568238308	45.6005551611048	1178.70501602406
43	6.3096	819.994347369639	689.144070384716	1071.12570665845	40.0445463437254	1184.6281260091
44	5.0119	962.337575699916	669.51655884134	1172.32505397042	34.8270702071647	1190.52623599421
45	3.9811	1092.84722520936	627.405657273541	1260.140038419	29.8602148353564	1196.47434597919
46	3.1623	1201.1836265602	568.7231572961	1329.01773289944	25.3361020663106	1201.55744296636
47	2.5119	1290.77154099591	508.014695759545	1387.14458588592	21.483331207372	1206.67553595344
48	1.9953	1356.72003430617	447.306824353047	1428.5561405141	18.2472442136412	1211.63362794092
49	1.5849	1412.05097431506	389.523702520944	1464.79236374639	15.4218747188232	1216.50171692863
50	1.2589	1455.63523222616	344.935408092279	1495.94597664952	13.3312284402675	1223.33984391136
51	1	1478.23838842467	300.055519898014	1508.38391931021	11.474112644782	1230.19097189407
52	0.79433	1504.34182258965	269.12930622587	1528.22606399118	10.1430088768988	1234.61905388289
53	0.63096	1526.64274421907	247.586403947431	1546.58885806679	9.21185722771218	1239.33713887097
54	0.50119	1547.49872100475	232.954669685954	1564.93455762208	8.56081256367587	1244.31523185841
55	0.39811	1567.66189275805	223.478186102133	1583.51075451645	8.11314154994899	1249.89833684431
56	0.31623	1589.83903208184	222.107794534732	1605.27879831635	7.95300879087293	1255.94644682904
57	0.25119	1611.48717309897	224.526479400219	1627.05348683268	7.9318859613604	1262.57457081231
58	0.19953	1636.5251801373	232.873283430486	1653.01077775045	8.09867058949956	1270.01770679351
59	0.15849	1661.44077067959	238.606277411196	1678.48693474105	8.17259941090488	1278.51586377206
60	0.12589	1688.66505887778	254.913575687147	1707.79700554378	8.58430939107174	1288.34404874724
61	0.1	1718.29239543871	275.644300814766	1740.26105420829	9.11360353799905	1299.76225971842
