Index	Frequency (Hz)	Z' (Ω)	-Z'' (Ω)	Z (Ω)	-Phase (°)	Time (s)
1	100000	58.9525543029648	1.34246695400013	58.9678376436392	1.30451343585166	1007.40685745654
2	79433	58.8960766721783	1.17024259652521	58.9077016620902	1.13829551730437	1009.28988845179
3	63096	58.8869944746615	1.09633705830666	58.8971991966022	1.06658916460399	1011.55293244607
4	50119	58.8628708290996	1.08768738245888	58.8729192930436	1.05860968054016	1013.89097444017
5	39811	58.9399457167331	1.11866256617867	58.9505607015609	1.08732623306426	1016.20401643433
6	31623	58.989116703043	1.18702900562015	59.0010586961404	1.15279865567138	1018.48206142858
7	25119	59.0366682349148	1.30036431854162	59.0509876601597	1.26181480026938	1020.82010342268
8	19953	59.1378873325147	1.46148541824876	59.155943554143	1.41567291459528	1023.18314841671
9	15849	59.2016731182931	1.66830555323553	59.2251749125672	1.61417020571107	1025.59118941063
10	12589	59.3196059495147	1.90529543879601	59.3501962988733	1.83965940182065	1028.07923840435
11	10000	59.4443989169539	2.20528650577837	59.4852910488846	2.1246020374585	1030.58228439803
12	7943.3	59.6188339558749	2.5887769315375	59.6750125953857	2.48634308629916	1033.24033439132
13	6309.6	59.7506586190873	3.02778961667564	59.8273241535802	2.90091038436484	1035.84338138475
14	5011.9	59.9646753413596	3.58256888368328	60.071599684052	3.41905247031806	1038.53143337796
15	3981.1	60.2159213865737	4.24517131557862	60.365376400157	4.03263172365224	1041.29948337097
16	3162.3	60.4876734506078	5.03922045537165	60.6972189005822	4.76230683869384	1044.08753436393
17	2511.9	60.7893703917823	5.99255300753048	61.0840260966593	5.62996847604024	1046.93058735675
18	1995.3	61.1249773305013	7.17471364119686	61.5446128388787	6.69461795832871	1049.98364434905
19	1584.9	61.4970660355241	8.57839356405626	62.0924952560086	7.94110263433794	1053.07170134125
20	1258.9	61.9517476367834	10.3255237880991	62.8063330942852	9.46253143666065	1056.20976033333
21	1000	62.4220963333066	12.4557525152441	63.6526816510163	11.2846297223966	1059.36281832537
22	794.33	62.984469483973	15.0699248603892	64.762226887865	13.455861150071	1062.69088031696
23	630.96	63.5715528935077	18.2702144871444	66.1448643108315	16.0344430421501	1065.94893930874
24	501.19	64.2918248184191	22.2723831480903	68.0404129145144	19.1074342493064	1069.39200130004
25	398.11	65.1019862778667	27.2072341468774	70.5585020195763	22.6808847094498	1072.92506629112
26	316.23	65.983631635782	33.3378928569322	73.9273612675771	26.8049546175934	1076.46313228219
27	251.19	67.0030756902394	40.9225810792506	78.5115901898554	31.4147807925672	1083.20526126517
28	199.53	68.3633252715416	50.5459491563937	85.0202165270316	36.4781952816	1087.82134625352
29	158.49	70.0609163866665	62.5418756744471	93.9149520460798	41.7546048174628	1091.16940624506
30	125.89	72.3974675108278	77.5244292896171	106.072760116168	46.9586120911864	1094.64746923628
31	100	75.8091346016595	96.4994892604367	122.715835638998	51.8471395757526	1102.79262121572
32	79.433	80.5942626586288	119.854632427798	144.431880441579	56.0817943214133	1106.42568720654
33	63.096	88.25140489075	148.430645235645	172.684587934942	59.2658396936666	1110.31375819673
34	50.119	98.8231552561172	184.579212297284	209.369294852566	61.8355373739353	1114.60683818589
35	39.811	114.037567567373	227.33461599924	254.333628229153	63.3603434249094	1118.62491317574
36	31.623	137.307154323785	279.450076238376	311.360883442557	63.8329116356293	1122.99299416472
37	25.119	171.980963562313	338.388063407021	379.583894922026	63.0586877237467	1127.62608215302
38	19.953	220.113909418735	406.291669365708	462.085548048814	61.5527915082349	1131.89416114224
39	15.849	286.498637205292	479.379592538453	558.467781400881	59.1355767363521	1136.27724113118
40	12.589	376.216382194275	547.022826132935	663.907176148753	55.4816496092515	1147.96645810166
41	10	492.04344160875	608.272417779454	782.369530759887	51.0299278358781	1151.52952309267
42	7.9433	622.852366118093	647.974569192203	898.785910158102	46.1324978342731	1155.05758908376
43	6.3096	767.546215234141	665.951493056814	1016.17842115686	40.9461168583409	1160.60569206975
44	5.0119	909.268426181412	649.896005833214	1117.64658512805	35.555138287018	1166.23379505554
45	3.9811	1040.02983951175	611.185351662401	1206.32068752945	30.4411083312303	1172.01690404094
46	3.1623	1150.3291876667	559.13067505955	1279.01694742114	25.9226000333538	1177.93001202601
47	2.5119	1233.57974095916	501.946146173228	1331.79161694427	22.1415092252904	1183.81812201115
48	1.9953	1299.62650132154	436.064128287324	1370.83221690922	18.5481655974697	1188.01619800055
49	1.5849	1356.80181396146	377.882800658225	1408.44118563837	15.5630487910752	1194.34931798456
50	1.2589	1397.50061598496	344.012503004857	1439.21943215828	13.8291284321865	1200.91243796799
51	1	1422.07345720202	304.963302600411	1454.40556022433	12.1037429107623	1207.36855795169
52	0.79433	1448.59003506805	275.276326493491	1474.51352846496	10.7596551570549	1211.34162994166
53	0.63096	1472.0367179379	255.089761465405	1493.97553037587	9.83117314599258	1215.78971193043
54	0.50119	1494.50667124245	241.755131767764	1513.93386055146	9.18871277656475	1220.57280191835
55	0.39811	1517.38318960877	234.224214500793	1535.35426751151	8.77495539884845	1225.60589590564
56	0.31623	1540.61004076687	234.381985920062	1558.33700239567	8.65040911743135	1231.31399989123
57	0.25119	1565.52035802771	236.60065534795	1583.29841202165	8.59420214219936	1237.58711587539
58	0.19953	1586.86919877791	249.947536355559	1606.43319965701	8.95110960058411	1244.5952448577
59	0.15849	1620.02714251121	257.607324085968	1640.38089354142	9.03519627841412	1252.8333998369
60	0.12589	1645.65473696512	278.981918533238	1669.13463332477	9.62166999750032	1262.24157381315
61	0.1	1678.60749553907	304.525856988446	1706.00677655585	10.282525724273	1273.45477978484
