Index	Frequency (Hz)	Z' (Ω)	-Z'' (Ω)	Z (Ω)	-Phase (°)	Time (s)
1	100000	52.4500643002636	1.13240620978977	52.4622873016966	1.23683390879816	2134.53272461082
2	79433	52.4263080846789	1.03339854239472	52.4364919873278	1.12923664770512	2136.52576060579
3	63096	52.4386521071596	1.00902201116466	52.4483589851458	1.10234658661472	2138.87380259986
4	50119	52.4939543584117	1.01002773595133	52.5036703498946	1.10228286981052	2141.25184859386
5	39811	52.5129368105	1.07120320362695	52.5238613276578	1.16860559296611	2143.61989158788
6	31623	52.5782919865434	1.14389636361436	52.5907338521997	1.24633367936264	2146.01293558184
7	25119	52.6196138313688	1.26431587998409	52.6348007919357	1.37640744818416	2148.46598057564
8	19953	52.7172978273682	1.42020834538811	52.7364246224917	1.54317976113944	2150.93402656941
9	15849	52.8270380701157	1.62474152070045	52.8520173339726	1.76162623749796	2153.45207256306
10	12589	52.9382807991276	1.86457712286868	52.9711074248444	2.01722181554386	2156.00012255662
11	10000	53.0724014927438	2.17317055223856	53.1168755712919	2.34479649441641	2158.79317154957
12	7943.3	53.2449986645526	2.5436361924612	53.3057217179152	2.73507193207708	2161.52122454268
13	6309.6	53.4151882737711	2.97734585578584	53.4981020847224	3.19034748473087	2164.44927653529
14	5011.9	53.6309009350217	3.51393099047041	53.7458951558899	3.74869798045693	2167.47233252766
15	3981.1	53.8777435372374	4.15411221802797	54.0376525858063	4.40892862486648	2170.52039151996
16	3162.3	54.1181131114554	4.93133897229799	54.3423248564504	5.20651516036684	2173.55844451229
17	2511.9	54.3935473101786	5.88847887036962	54.7113532312209	6.1786037662476	2176.72150550431
18	1995.3	54.7263693409673	7.03849052035287	55.1771315859122	7.32871680427766	2179.93956449618
19	1584.9	55.0393709110169	8.44836319682432	55.6839940286789	8.72660336286884	2183.07262148827
20	1258.9	55.4317872163361	10.1581112460193	56.3548601105856	10.3844746105998	2186.35568347998
21	1000	55.8479785272862	12.2990080333576	57.1862072897723	12.4196037470241	2189.43374147221
22	794.33	56.2745989898631	14.9308668780988	58.2216564278397	14.8594431516327	2192.98680646324
23	630.96	56.7654161299512	18.2111597562633	59.615088761778	17.7869860824924	2196.32486845481
24	501.19	57.3001335203502	22.3161240730225	61.4923954249019	21.2789358623198	2199.66292844639
25	398.11	57.8965559746367	27.4663191088282	64.0812755733859	25.3798185311875	2202.96599143805
26	316.23	58.6252723921118	33.9417702170997	67.7419096905284	30.0691852672118	2206.33405542954
27	251.19	59.5560010316257	42.0375357598287	72.8976794667559	35.2163123435835	2209.8371164207
28	199.53	60.7892940590991	52.2303261092352	80.1457749209568	40.6692609533235	2213.24018141211
29	158.49	62.5562736330112	65.0582580196469	90.2544420369387	46.1231854275167	2219.26929539688
30	125.89	65.0533587601348	80.9995646182639	103.888733529306	51.2309307683714	2222.85235838784
31	100	68.6671673231333	100.833030151915	121.993769667964	55.7451857970394	2226.66543137821
32	79.433	74.0992904127863	125.561961918532	145.796128619759	59.4533931656358	2230.53850236843
33	63.096	82.0237729257498	156.098069088339	176.336344801867	62.279731306257	2234.60157735817
34	50.119	94.4731074450125	193.144781909561	215.011801557981	63.9353080837853	2238.78465534761
35	39.811	112.250277287059	237.64055151326	262.817724810463	64.7161414652364	2243.13273333663
36	31.623	138.978731221001	290.270505033204	321.826123588546	64.4153479390452	2247.2258123263
37	25.119	177.265447224511	350.954560425864	393.182072662802	63.201880530365	2251.64389231515
38	19.953	232.096852578639	417.399911510369	477.589400118736	60.9235812782116	2256.14697730378
39	15.849	308.009479516902	485.822696837258	575.233458896907	57.6254801690426	2261.14506829116
40	12.589	402.79123008975	546.94987450315	679.260583470162	53.6308909774556	2273.16129126082
41	10	519.395997920981	593.904750237752	788.983558137493	48.8288668438777	2283.06647623581
42	7.9433	650.999657000248	618.914238534578	898.251294502422	43.5526829505215	2288.86458022117
43	6.3096	785.387860979488	617.064074749444	998.80036269533	38.1560363330994	2294.38268220724
44	5.0119	913.16196955347	591.354703129111	1087.91781286625	32.9266964375118	2300.54579619168
45	3.9811	1023.57083112328	544.46436994289	1159.36995668497	28.0096915663673	2306.60390917639
46	3.1623	1114.91669700927	489.73304813724	1217.73465899097	23.7137363573179	2312.97702616029
47	2.5119	1186.56764589738	431.484822459236	1262.58541505244	19.9833486959653	2319.32514414427
48	1.9953	1242.59884630895	379.671416776742	1299.30838432052	16.9903356090637	2325.80326412791
49	1.5849	1282.21671253937	330.34328926357	1324.08700117355	14.4471931259792	2329.65633711818
50	1.2589	1313.89414600303	293.790880638827	1346.33981908268	12.6041840495747	2333.86941310755
51	1	1342.99472194001	261.04321915974	1368.12952070629	10.9996501557965	2340.70554209029
52	0.79433	1366.34480863333	237.374704157357	1386.81104922518	9.85561145787015	2344.8186190799
53	0.63096	1387.36661139536	221.164967161839	1404.88435720324	9.05750873446513	2349.25170106871
54	0.50119	1407.04705634709	211.99060541281	1422.92706614158	8.5679400583875	2353.86978405705
55	0.39811	1426.03681052808	207.138761688959	1441.00223857395	8.26468780692131	2359.1178830438
56	0.31623	1447.0969454428	207.162173627668	1461.8501071218	8.14694309338192	2365.01099002892
57	0.25119	1465.46497851324	211.695885466663	1480.67645053614	8.21988371073041	2371.29910701305
58	0.19953	1492.42193421897	221.545806286655	1508.77625048286	8.44373279758886	2378.30723799535
59	0.15849	1514.42037071333	235.365536561246	1532.60105540622	8.83402140736846	2386.62038997436
60	0.12589	1542.27171824336	250.983587893912	1562.56033940627	9.2430762408598	2396.15356895029
61	0.1	1576.38138214374	274.825326149801	1600.1584989815	9.88951444726338	2407.41177492187
