Index	Frequency (Hz)	Z' (Ω)	-Z'' (Ω)	Z (Ω)	-Phase (°)	Time (s)
1	100000	55.2779272956061	1.40193628991023	55.2957021065767	1.45280080431846	1193.22130498741
2	79433	55.2256541717823	1.28597493532116	55.2406246365441	1.33393844689693	1195.17833998246
3	63096	55.2036790906621	1.23738872841883	55.2175453638608	1.28406807052289	1197.56038297645
4	50119	55.2313242616229	1.25350631217008	55.2455469496609	1.30013710003434	1199.7974219708
5	39811	55.2908130733581	1.30879101413644	55.306301125927	1.35599742823332	1202.15946796484
6	31623	55.3557117771332	1.40930430928286	55.3736486515852	1.45838157189766	1204.52651195886
7	25119	55.4471632433026	1.53934567394772	55.4685270836837	1.59025919631627	1207.08355695241
8	19953	55.5415620004879	1.71860518261005	55.5681447704324	1.77231989499226	1209.58560394609
9	15849	55.6566782402521	1.94724056041712	55.6907315317287	2.0037699030618	1212.10765093972
10	12589	55.8214441983977	2.23119546882147	55.866017091027	2.28890656303415	1214.70469893317
11	10000	55.9712852212993	2.56744783582423	56.0301397259878	2.62636241603365	1217.22174792681
12	7943.3	56.2161245555823	3.00941224555822	56.2966182120424	3.06428436180238	1219.88879592008
13	6309.6	56.4328277954829	3.51901690075407	56.5424401042475	3.56820834258973	1222.61584491319
14	5011.9	56.7062522266523	4.12404852654317	56.8560183080208	4.15959953309677	1225.58789990569
15	3981.1	56.9693777619463	4.84152913364468	57.1747357399689	4.85759623061137	1228.63995889798
16	3162.3	57.299960748609	5.73172253231844	57.5859196764245	5.71230237148553	1231.58201189055
17	2511.9	57.656825465188	6.7919765900839	58.0554947332585	6.71848240803727	1234.66906888276
18	1995.3	58.1018438398425	8.08694337409413	58.661937495494	7.92384385902965	1237.84112687475
19	1584.9	58.5527604807198	9.65561684334472	59.3435480615881	9.36406129128611	1241.19818886628
20	1258.9	59.0284902359331	11.5559912391969	60.1490115717128	11.0766892421949	1244.66025385753
21	1000	59.5652278549678	13.881323874095	61.1613237423108	13.1183041595102	1248.18231984864
22	794.33	60.2101437485161	16.7718400461286	62.5024481820504	15.5654473692739	1251.76938483959
23	630.96	60.8926858360422	20.2968157040401	64.1862907173386	18.4343168755771	1255.63645882982
24	501.19	61.6171444358721	24.6428424694986	66.362204404372	21.7981907058821	1259.37852882037
25	398.11	62.4010271919981	30.047974981014	69.2587106079526	25.7122167062776	1263.31559981043
26	316.23	63.2698964631156	36.7823348942999	73.1848342126277	30.1718356863452	1267.33767380028
27	251.19	64.2267260685836	45.2589549093388	78.5712755463117	35.1713880437264	1274.67581278175
28	199.53	65.2966583125274	55.7739674014708	85.8742628875688	40.502715682269	1279.87990876861
29	158.49	66.5555429102562	69.0128553839264	95.8770801616408	46.0384294508373	1284.14198375785
30	125.89	68.2102919483814	85.7649014404656	109.582216836384	51.5041700927901	1288.18406174765
31	100	70.3265754498817	106.540978440575	127.658949163711	56.5716191075318	1295.55719772903
32	79.433	73.3041784172042	132.764166817889	151.656937079282	61.0952303173209	1299.52427171902
33	63.096	77.5084776734831	164.341041329992	181.701794093198	64.7499399192081	1303.71134670845
34	50.119	81.8377566060868	206.610389662406	222.227971962956	68.3916298680486	1308.05342669748
35	39.811	91.5789679833566	256.843513935563	272.681678936566	70.3760275790054	1312.94051768514
36	31.623	102.668523631622	320.432322146162	336.478377939324	72.2342157631073	1317.61760767334
37	25.119	122.975943624361	395.710621731188	414.379028018051	72.7361969019223	1322.82470066019
38	19.953	148.098971875111	492.535467507133	514.319445697842	73.2646547803477	1329.90683264231
39	15.849	186.152373805241	603.120566079269	631.194996416404	72.8472268964503	1343.50308560798
40	12.589	249.594169855797	752.488880206296	792.803105733151	71.6497556402978	1349.15518859371
41	10	330.699523648737	914.889732644274	972.823415548481	70.1269109356871	1355.38730457798
42	7.9433	457.190830774646	1095.3727785425	1186.95618272804	67.3451344443267	1362.2294325607
43	6.3096	608.751293408718	1302.95253116092	1438.14583255157	64.9575901306496	1375.23667552786
44	5.0119	857.75375996302	1515.38037328201	1741.29813313488	60.4887510105329	1389.62593949153
45	3.9811	1159.69089055308	1708.78691698412	2065.14786136196	55.836703148075	1396.48806447421
46	3.1623	1533.70146677787	1860.32605509329	2411.02742009616	50.4969375484754	1400.59514346384
47	2.5119	1945.44725594653	1945.24004158542	2751.13137546303	44.9969484804543	1407.92227844534
48	1.9953	2380.75486761233	1926.24417381731	3062.41903677876	38.9759640637224	1415.20941442694
49	1.5849	2784.75230312084	1852.8513844987	3344.83237887575	33.638042928022	1422.70155240802
50	1.2589	3050.03768854447	1677.56573351818	3480.94192594707	28.8114428196518	1430.29369038886
51	1	3396.11004649188	1505.29510526678	3714.76470342648	23.9048830304756	1442.07491135911
52	0.79433	3616.39304546516	1316.94601573026	3848.71997781555	20.0096048532184	1446.74199534733
53	0.63096	3782.02987439861	1135.05541424896	3948.68342163049	16.705449090923	1455.33415532563
54	0.50119	3910.56165072534	981.104577556256	4031.75626944705	14.0840032676793	1460.9712583114
55	0.39811	4008.70073717696	848.331646872823	4097.48071177022	11.9487910533845	1470.69343828686
56	0.31623	4087.14714185585	739.606093032497	4153.52728798443	10.2571875138484	1480.98062926088
57	0.25119	4145.40201931908	654.766045022179	4196.79359457773	8.97571316507666	1487.6277552441
58	0.19953	4200.66865522815	586.454909874482	4241.40855286686	7.94768751628357	1495.1548932251
59	0.15849	4247.04970232602	548.393015969017	4282.30849822746	7.3575094388657	1503.77205120334
60	0.12589	4298.56563693988	505.915584819529	4328.23487279094	6.71249224663995	1513.4542321789
61	0.1	4352.8405319213	506.369008284004	4382.1946863287	6.63543361716572	1524.89144215002
